
T2CDC 000:001 SEGGER J-Link V6.30k Log File (0001ms, 0002ms total)
T2CDC 000:001 DLL Compiled: Apr  9 2018 18:31:07 (0001ms, 0002ms total)
T2CDC 000:001 Logging started @ 2018-05-03 11:14 (0001ms, 0002ms total)
T2CDC 000:002 JLINK_SetWarnOutHandler(...) (0000ms, 0002ms total)
T2CDC 000:002 JLINK_OpenEx(...)
Firmware: J-Link V10 compiled Mar 29 2018 17:45:34
Hardware: V10.10
S/N: 50109131
Feature(s): GDB
TELNET listener socket opened on port 19021WEBSRV 
Starting webserver (0009ms, 0011ms total)
T2CDC 000:002 WEBSRV Webserver running on local port 19080 (0009ms, 0011ms total)
T2CDC 000:002   returns O.K. (0009ms, 0011ms total)
T2CDC 000:011 JLINK_GetEmuCaps()  returns 0xB9FF7BBF (0000ms, 0011ms total)
T2CDC 000:011 JLINK_TIF_GetAvailable(...) (0000ms, 0011ms total)
T2CDC 000:011 JLINK_SetErrorOutHandler(...) (0000ms, 0011ms total)
T2CDC 000:011 JLINK_ExecCommand("ProjectFile = "I:\MCU\NRF5xx\nRF5_GEN\nRF5_SDK_12.3.0_d7731ad\examples\ble_peripheral\ble_app_beacon\pca10028\s130\arm4\JLinkSettings.ini"", ...). Ref file found at: C:\Keil_v5\ARM\Segger\JLinkDevices.ref (0101ms, 0112ms total)
T2CDC 000:011 XML referenced by ref file: C:\Program Files (x86)\SEGGER\JLink_V630k\JLinkDevices.xml (0101ms, 0112ms total)
T2CDC 000:011 C:\Program Files (x86)\SEGGER\JLink_V630k\JLinkDevices.xml evaluated successfully.  returns 0x00 (0138ms, 0149ms total)
T2CDC 000:150 JLINK_ExecCommand("Device = nRF51822_xxAA", ...). Device "NRF51822_XXAA" selected.  returns 0x00 (0001ms, 0150ms total)
T2CDC 000:151 JLINK_ExecCommand("DisableConnectionTimeout", ...).   returns 0x01 (0000ms, 0150ms total)
T2CDC 000:151 JLINK_GetHardwareVersion()  returns 0x18A88 (0000ms, 0150ms total)
T2CDC 000:151 JLINK_GetDLLVersion()  returns 63011 (0000ms, 0150ms total)
T2CDC 000:151 JLINK_GetFirmwareString(...) (0000ms, 0150ms total)
T2CDC 000:154 JLINK_GetDLLVersion()  returns 63011 (0000ms, 0150ms total)
T2CDC 000:154 JLINK_GetCompileDateTime() (0000ms, 0150ms total)
T2CDC 000:156 JLINK_GetFirmwareString(...) (0000ms, 0150ms total)
T2CDC 000:157 JLINK_GetHardwareVersion()  returns 0x18A88 (0000ms, 0150ms total)
T2CDC 000:164 JLINK_TIF_Select(JLINKARM_TIF_SWD)  returns 0x00 (0000ms, 0150ms total)
T2CDC 000:164 JLINK_SetSpeed(5000) (0001ms, 0151ms total)
T2CDC 000:165 JLINK_GetId() >0x10B TIF>Found SW-DP with ID 0x0BB11477 >0x0D TIF> >0x28 TIF> >0x0D TIF> >0x28 TIF> >0x0D TIF> >0x28 TIF> >0x0D TIF> >0x28 TIF> >0x35 TIF> >0x0D TIF> >0x28 TIF>Scanning AP map to find all available APs >0x0D TIF> >0x28 TIF> >0x35 TIF> >0x35 TIF> >0x0D TIF> >0x28 TIF> >0x35 TIF> >0x35 TIF>AP[1]: Stopped AP scan as end of AP map has been reachedAP[0]: AHB-AP (IDR: 0x04770021)Iterating through AP map to find AHB-AP to use >0x42 TIF> >0x28 TIF> >0x0D TIF> >0x28 TIF> >0x35 TIF>
 >0x35 TIF> >0x42 TIF> >0x28 TIF> >0x0D TIF> >0x28 TIF> >0x0D TIF> >0x28 TIF> >0x35 TIF> >0x35 TIF>AP[0]: Core foundAP[0]: AHB-AP ROM base: 0xF0000000 >0x0D TIF> >0x28 TIF> >0x0D TIF> >0x28 TIF> >0x0D TIF> >0x28 TIF> >0x35 TIF> >0x35 TIF>CPUID register: 0x410CC200. Implementer code: 0x41 (ARM)Found Cortex-M0 r0p0, Little endian. -- CPU_ReadMem(4 bytes @ 0xE000EDF0) -- CPU_WriteMem(4 bytes @ 0xE000EDF0) -- CPU_ReadMem(4 bytes @ 0xE0002000)FPUnit: 4 code (BP) slots and 0 literal slots
 -- CPU_ReadMem(4 bytes @ 0xE000EDFC) -- CPU_WriteMem(4 bytes @ 0xE000EDFC) -- CPU_ReadMem(4 bytes @ 0xE0001000) -- CPU_WriteMem(4 bytes @ 0xE0001000)CoreSight components:ROMTbl[0] @ F0000000 -- CPU_ReadMem(16 bytes @ 0xF0000000) -- CPU_ReadMem(16 bytes @ 0xE00FFFF0) -- CPU_ReadMem(16 bytes @ 0xE00FFFE0)ROMTbl[0][0]: E00FF000, CID: B105100D, PID: 000BB471 ROM TableROMTbl[1] @ E00FF000 -- CPU_ReadMem(16 bytes @ 0xE00FF000) -- CPU_ReadMem(16 bytes @ 0xE000EFF0) -- CPU_ReadMem(16 bytes @ 0xE000EFE0)
ROMTbl[1][0]: E000E000, CID: B105E00D, PID: 000BB008 SCS -- CPU_ReadMem(16 bytes @ 0xE0001FF0) -- CPU_ReadMem(16 bytes @ 0xE0001FE0)ROMTbl[1][1]: E0001000, CID: B105E00D, PID: 000BB00A DWT -- CPU_ReadMem(16 bytes @ 0xE0002FF0) -- CPU_ReadMem(16 bytes @ 0xE0002FE0)ROMTbl[1][2]: E0002000, CID: B105E00D, PID: 000BB00B FPB -- CPU_ReadMem(16 bytes @ 0xF0002FF0) -- CPU_ReadMem(16 bytes @ 0xF0002FE0)ROMTbl[0][1]: F0002000, CID: B105900D, PID: 000BB9A3 ??? -- CPU_ReadMem(4 bytes @ 0x10001004) >0x35 TIF>
  returns 0x0BB11477 (0175ms, 0326ms total)
T2CDC 000:340 JLINK_GetDLLVersion()  returns 63011 (0000ms, 0326ms total)
T2CDC 000:340 JLINK_CORE_GetFound()  returns 0x60000FF (0000ms, 0326ms total)
T2CDC 000:340 JLINK_GetDebugInfo(0x100 = JLINKARM_ROM_TABLE_ADDR_INDEX) -- Value=0xF0000000  returns 0x00 (0001ms, 0327ms total)
T2CDC 000:349 JLINK_GetDebugInfo(0x100 = JLINKARM_ROM_TABLE_ADDR_INDEX) -- Value=0xF0000000  returns 0x00 (0000ms, 0327ms total)
T2CDC 000:349 JLINK_GetDebugInfo(0x101 = JLINKARM_DEBUG_INFO_ETM_ADDR_INDEX) -- Value=0x00000000  returns 0x00 (0000ms, 0327ms total)
T2CDC 000:349 JLINK_ReadMemEx(0xE0041FF0, 0x0010 Bytes, ..., Flags = 0x02000004) -- CPU_ReadMem(16 bytes @ 0xE0041FF0) - Data: 00 00 00 00 00 00 00 00 00 00 00 00 00 00 00 00  returns 0x10 (0000ms, 0327ms total)
T2CDC 000:349 JLINK_GetDebugInfo(0x102 = JLINKARM_DEBUG_INFO_MTB_ADDR_INDEX) -- Value=0x00000000  returns 0x00 (0000ms, 0327ms total)
T2CDC 000:349 JLINK_GetDebugInfo(0x103 = JLINKARM_DEBUG_INFO_TPIU_ADDR_INDEX) -- Value=0x00000000  returns 0x00 (0000ms, 0327ms total)
T2CDC 000:349 JLINK_ReadMemEx(0xE0040FF0, 0x0010 Bytes, ..., Flags = 0x02000004) -- CPU_ReadMem(16 bytes @ 0xE0040FF0) - Data: 00 00 00 00 00 00 00 00 00 00 00 00 00 00 00 00  returns 0x10 (0001ms, 0328ms total)
T2CDC 000:350 JLINK_GetDebugInfo(0x104 = JLINKARM_DEBUG_INFO_ITM_ADDR_INDEX) -- Value=0xE0000000  returns 0x00 (0000ms, 0328ms total)
T2CDC 000:350 JLINK_GetDebugInfo(0x105 = JLINKARM_DEBUG_INFO_DWT_ADDR_INDEX) -- Value=0xE0001000  returns 0x00 (0000ms, 0328ms total)
T2CDC 000:350 JLINK_GetDebugInfo(0x106 = JLINKARM_DEBUG_INFO_FPB_ADDR_INDEX) -- Value=0xE0002000  returns 0x00 (0000ms, 0328ms total)
T2CDC 000:350 JLINK_GetDebugInfo(0x107 = JLINKARM_DEBUG_INFO_NVIC_ADDR_INDEX) -- Value=0xE000E000  returns 0x00 (0000ms, 0328ms total)
T2CDC 000:350 JLINK_GetDebugInfo(0x10C = JLINKARM_DEBUG_INFO_DBG_ADDR_INDEX) -- Value=0xE000EDF0  returns 0x00 (0000ms, 0328ms total)
T2CDC 000:350 JLINK_ReadMemU32(0xE000ED00, 0x0001 Items, ...) -- CPU_ReadMem(4 bytes @ 0xE000ED00) - Data: 00 C2 0C 41  returns 0x01 (0000ms, 0328ms total)
T2CDC 000:350 JLINK_GetDebugInfo(0x10F = JLINKARM_DEBUG_INFO_HAS_CORTEX_M_SECURITY_EXT_INDEX) -- Value=0x00000000  returns 0x00 (0000ms, 0328ms total)
T2CDC 000:350 JLINK_SetResetType(JLINKARM_CM3_RESET_TYPE_NORMAL)  returns JLINKARM_CM3_RESET_TYPE_NORMAL (0000ms, 0328ms total)
T2CDC 000:350 JLINK_Reset() -- CPU is running -- CPU_WriteMem(4 bytes @ 0xE000EDF0) -- CPU is running -- CPU_WriteMem(4 bytes @ 0xE000EDFC)Reset: Halt core after reset via DEMCR.VC_CORERESET. >0x35 TIF>Reset: Reset device via AIRCR.SYSRESETREQ. -- CPU is running -- CPU_WriteMem(4 bytes @ 0xE000ED0C) >0x0D TIF> >0x28 TIF> -- CPU_ReadMem(4 bytes @ 0xE000EDF0) -- CPU_ReadMem(4 bytes @ 0xE000EDF0) -- CPU is running -- CPU_WriteMem(4 bytes @ 0xE000EDF0) -- CPU is running -- CPU_WriteMem(4 bytes @ 0xE000EDFC)
 -- CPU_ReadMem(4 bytes @ 0xE000EDF0) -- CPU_WriteMem(4 bytes @ 0xE0002000) -- CPU_ReadMem(4 bytes @ 0xE000EDFC) -- CPU_ReadMem(4 bytes @ 0xE0001000) -- CPU_WriteMem(4 bytes @ 0xE0001000) (0069ms, 0397ms total)
T2CDC 000:419 JLINK_Halt()  returns 0x00 (0000ms, 0397ms total)
T2CDC 000:419 JLINK_ReadMemU32(0xE000EDF0, 0x0001 Items, ...) -- CPU_ReadMem(4 bytes @ 0xE000EDF0) - Data: 03 00 03 00  returns 0x01 (0000ms, 0397ms total)
T2CDC 000:419 JLINK_WriteU32(0xE000EDF0, 0xA05F0003) -- CPU_WriteMem(4 bytes @ 0xE000EDF0)  returns 0x00 (0001ms, 0398ms total)
T2CDC 000:420 JLINK_WriteU32(0xE000EDFC, 0x01000000) -- CPU_WriteMem(4 bytes @ 0xE000EDFC)  returns 0x00 (0000ms, 0398ms total)
T2CDC 000:428 JLINK_GetHWStatus(...)  returns 0x00 (0000ms, 0399ms total)
T2CDC 000:433 JLINK_GetNumBPUnits(Type = 0xFFFFFF00)  returns 0x04 (0000ms, 0399ms total)
T2CDC 000:433 JLINK_GetNumBPUnits(Type = 0xF0)  returns 0x2000 (0000ms, 0399ms total)
T2CDC 000:433 JLINK_GetNumWPUnits()  returns 0x02 (0000ms, 0399ms total)
T2CDC 000:451 JLINK_GetSpeed()  returns 0x1388 (0000ms, 0399ms total)
T2CDC 000:454 JLINK_ReadMemU32(0xE000E004, 0x0001 Items, ...) -- CPU_ReadMem(4 bytes @ 0xE000E004) - Data: 00 00 00 00  returns 0x01 (0001ms, 0400ms total)
T2CDC 000:455 JLINK_Halt()  returns 0x00 (0000ms, 0400ms total)
T2CDC 000:455 JLINK_IsHalted()  returns TRUE (0000ms, 0400ms total)
T2CDC 000:456 JLINK_WriteMem(0x20000000, 0x0478 Bytes, ...) - Data: 00 BE 0A E0 0D 78 2D 06 68 40 08 24 40 00 00 D3 ... -- CPU_WriteMem(1144 bytes @ 0x20000000)  returns 0x478 (0005ms, 0405ms total)
T2CDC 000:461 JLINK_WriteReg(R0, 0x00000000)  returns 0x00 (0000ms, 0405ms total)
T2CDC 000:461 JLINK_WriteReg(R1, 0x00F42400)  returns 0x00 (0000ms, 0405ms total)
T2CDC 000:461 JLINK_WriteReg(R2, 0x00000001)  returns 0x00 (0000ms, 0405ms total)
T2CDC 000:461 JLINK_WriteReg(R3, 0x00000000)  returns 0x00 (0000ms, 0405ms total)
T2CDC 000:461 JLINK_WriteReg(R4, 0x00000000)  returns 0x00 (0000ms, 0405ms total)
T2CDC 000:461 JLINK_WriteReg(R5, 0x00000000)  returns 0x00 (0000ms, 0405ms total)
T2CDC 000:461 JLINK_WriteReg(R6, 0x00000000)  returns 0x00 (0000ms, 0405ms total)
T2CDC 000:461 JLINK_WriteReg(R7, 0x00000000)  returns 0x00 (0000ms, 0405ms total)
T2CDC 000:461 JLINK_WriteReg(R8, 0x00000000)  returns 0x00 (0000ms, 0405ms total)
T2CDC 000:461 JLINK_WriteReg(R9, 0x20000474)  returns 0x00 (0000ms, 0405ms total)
T2CDC 000:461 JLINK_WriteReg(R10, 0x00000000)  returns 0x00 (0000ms, 0405ms total)
T2CDC 000:461 JLINK_WriteReg(R11, 0x00000000)  returns 0x00 (0000ms, 0405ms total)
T2CDC 000:461 JLINK_WriteReg(R12, 0x00000000)  returns 0x00 (0000ms, 0405ms total)
T2CDC 000:461 JLINK_WriteReg(R13 (SP), 0x20002000)  returns 0x00 (0000ms, 0405ms total)
T2CDC 000:461 JLINK_WriteReg(R14, 0x20000001)  returns 0x00 (0000ms, 0405ms total)
T2CDC 000:461 JLINK_WriteReg(R15 (PC), 0x20000028)  returns 0x00 (0000ms, 0405ms total)
T2CDC 000:461 JLINK_WriteReg(XPSR, 0x01000000)  returns 0x00 (0000ms, 0405ms total)
T2CDC 000:461 JLINK_WriteReg(MSP, 0x20002000)  returns 0x00 (0000ms, 0405ms total)
T2CDC 000:461 JLINK_WriteReg(PSP, 0x20002000)  returns 0x00 (0000ms, 0405ms total)
T2CDC 000:461 JLINK_WriteReg(CFBP, 0x00000000)  returns 0x00 (0000ms, 0405ms total)
T2CDC 000:461 JLINK_SetBPEx(Addr = 0x20000000, Type = 0xFFFFFFF2) -- CPU_ReadMem(2 bytes @ 0x20000000)  returns 0x00000001 (0001ms, 0406ms total)
T2CDC 000:462 JLINK_Go() -- CPU_WriteMem(2 bytes @ 0x20000000) -- CPU_ReadMem(4 bytes @ 0xE0001000) -- CPU_WriteMem(4 bytes @ 0xE0001000) -- CPU_WriteMem(4 bytes @ 0xE0002008) -- CPU_WriteMem(4 bytes @ 0xE000200C) -- CPU_WriteMem(4 bytes @ 0xE0002010) -- CPU_WriteMem(4 bytes @ 0xE0002014) -- CPU_WriteMem(4 bytes @ 0xE0001004) (0004ms, 0410ms total)
T2CDC 000:466 JLINK_IsHalted() -- CPU_ReadMem(2 bytes @ 0x20000000)  returns TRUE (0002ms, 0412ms total)
T2CDC 000:468 JLINK_ReadReg(R15 (PC))  returns 0x20000000 (0000ms, 0410ms total)
T2CDC 000:468 JLINK_ClrBPEx(BPHandle = 0x00000001)  returns 0x00 (0000ms, 0410ms total)
T2CDC 000:468 JLINK_ReadReg(R0)  returns 0x00000000 (0000ms, 0410ms total)
T2CDC 000:468 JLINK_WriteReg(R0, 0x0001B000)  returns 0x00 (0000ms, 0410ms total)
T2CDC 000:468 JLINK_WriteReg(R1, 0x00000400)  returns 0x00 (0001ms, 0411ms total)
T2CDC 000:469 JLINK_WriteReg(R2, 0x000000FF)  returns 0x00 (0000ms, 0411ms total)
T2CDC 000:469 JLINK_WriteReg(R3, 0x00000000)  returns 0x00 (0000ms, 0411ms total)
T2CDC 000:469 JLINK_WriteReg(R4, 0x00000000)  returns 0x00 (0000ms, 0411ms total)
T2CDC 000:469 JLINK_WriteReg(R5, 0x00000000)  returns 0x00 (0000ms, 0411ms total)
T2CDC 000:469 JLINK_WriteReg(R6, 0x00000000)  returns 0x00 (0000ms, 0411ms total)
T2CDC 000:469 JLINK_WriteReg(R7, 0x00000000)  returns 0x00 (0000ms, 0411ms total)
T2CDC 000:469 JLINK_WriteReg(R8, 0x00000000)  returns 0x00 (0000ms, 0411ms total)
T2CDC 000:469 JLINK_WriteReg(R9, 0x20000474)  returns 0x00 (0000ms, 0411ms total)
T2CDC 000:469 JLINK_WriteReg(R10, 0x00000000)  returns 0x00 (0000ms, 0411ms total)
T2CDC 000:469 JLINK_WriteReg(R11, 0x00000000)  returns 0x00 (0000ms, 0411ms total)
T2CDC 000:469 JLINK_WriteReg(R12, 0x00000000)  returns 0x00 (0000ms, 0411ms total)
T2CDC 000:469 JLINK_WriteReg(R13 (SP), 0x20002000)  returns 0x00 (0000ms, 0411ms total)
T2CDC 000:469 JLINK_WriteReg(R14, 0x20000001)  returns 0x00 (0000ms, 0411ms total)
T2CDC 000:469 JLINK_WriteReg(R15 (PC), 0x20000188)  returns 0x00 (0000ms, 0411ms total)
T2CDC 000:469 JLINK_WriteReg(XPSR, 0x01000000)  returns 0x00 (0000ms, 0411ms total)
T2CDC 000:469 JLINK_WriteReg(MSP, 0x20002000)  returns 0x00 (0000ms, 0411ms total)
T2CDC 000:469 JLINK_WriteReg(PSP, 0x20002000)  returns 0x00 (0000ms, 0411ms total)
T2CDC 000:469 JLINK_WriteReg(CFBP, 0x00000000)  returns 0x00 (0000ms, 0411ms total)
T2CDC 000:469 JLINK_SetBPEx(Addr = 0x20000000, Type = 0xFFFFFFF2)  returns 0x00000002 (0000ms, 0411ms total)
T2CDC 000:469 JLINK_Go() -- CPU_ReadMem(4 bytes @ 0xE0001000) -- CPU_WriteMem(4 bytes @ 0xE0001000) (0002ms, 0413ms total)
T2CDC 000:471 JLINK_IsHalted()  returns FALSE (0000ms, 0413ms total)
T2CDC 000:491 JLINK_IsHalted() -- CPU_ReadMem(2 bytes @ 0x20000000)  returns TRUE (0002ms, 0415ms total)
T2CDC 000:493 JLINK_ReadReg(R15 (PC))  returns 0x20000000 (0000ms, 0413ms total)
T2CDC 000:493 JLINK_ClrBPEx(BPHandle = 0x00000002)  returns 0x00 (0000ms, 0413ms total)
T2CDC 000:493 JLINK_ReadReg(R0)  returns 0x00000000 (0000ms, 0413ms total)
T2CDC 000:494 JLINK_WriteReg(R0, 0x0001B400)  returns 0x00 (0000ms, 0413ms total)
T2CDC 000:494 JLINK_WriteReg(R1, 0x00000400)  returns 0x00 (0000ms, 0413ms total)
T2CDC 000:494 JLINK_WriteReg(R2, 0x000000FF)  returns 0x00 (0000ms, 0413ms total)
T2CDC 000:494 JLINK_WriteReg(R3, 0x00000000)  returns 0x00 (0000ms, 0413ms total)
T2CDC 000:494 JLINK_WriteReg(R4, 0x00000000)  returns 0x00 (0000ms, 0413ms total)
T2CDC 000:494 JLINK_WriteReg(R5, 0x00000000)  returns 0x00 (0000ms, 0413ms total)
T2CDC 000:494 JLINK_WriteReg(R6, 0x00000000)  returns 0x00 (0000ms, 0413ms total)
T2CDC 000:494 JLINK_WriteReg(R7, 0x00000000)  returns 0x00 (0000ms, 0413ms total)
T2CDC 000:494 JLINK_WriteReg(R8, 0x00000000)  returns 0x00 (0000ms, 0413ms total)
T2CDC 000:494 JLINK_WriteReg(R9, 0x20000474)  returns 0x00 (0000ms, 0413ms total)
T2CDC 000:494 JLINK_WriteReg(R10, 0x00000000)  returns 0x00 (0000ms, 0413ms total)
T2CDC 000:494 JLINK_WriteReg(R11, 0x00000000)  returns 0x00 (0000ms, 0413ms total)
T2CDC 000:494 JLINK_WriteReg(R12, 0x00000000)  returns 0x00 (0000ms, 0413ms total)
T2CDC 000:494 JLINK_WriteReg(R13 (SP), 0x20002000)  returns 0x00 (0000ms, 0413ms total)
T2CDC 000:494 JLINK_WriteReg(R14, 0x20000001)  returns 0x00 (0000ms, 0413ms total)
T2CDC 000:494 JLINK_WriteReg(R15 (PC), 0x20000188)  returns 0x00 (0000ms, 0413ms total)
T2CDC 000:494 JLINK_WriteReg(XPSR, 0x01000000)  returns 0x00 (0000ms, 0413ms total)
T2CDC 000:494 JLINK_WriteReg(MSP, 0x20002000)  returns 0x00 (0000ms, 0413ms total)
T2CDC 000:494 JLINK_WriteReg(PSP, 0x20002000)  returns 0x00 (0000ms, 0413ms total)
T2CDC 000:494 JLINK_WriteReg(CFBP, 0x00000000)  returns 0x00 (0000ms, 0413ms total)
T2CDC 000:494 JLINK_SetBPEx(Addr = 0x20000000, Type = 0xFFFFFFF2)  returns 0x00000003 (0000ms, 0413ms total)
T2CDC 000:494 JLINK_Go() -- CPU_ReadMem(4 bytes @ 0xE0001000) -- CPU_WriteMem(4 bytes @ 0xE0001000) (0002ms, 0415ms total)
T2CDC 000:496 JLINK_IsHalted()  returns FALSE (0000ms, 0415ms total)
T2CDC 000:498 JLINK_IsHalted() -- CPU_ReadMem(2 bytes @ 0x20000000)  returns TRUE (0002ms, 0417ms total)
T2CDC 000:500 JLINK_ReadReg(R15 (PC))  returns 0x20000000 (0000ms, 0415ms total)
T2CDC 000:500 JLINK_ClrBPEx(BPHandle = 0x00000003)  returns 0x00 (0000ms, 0415ms total)
T2CDC 000:500 JLINK_ReadReg(R0)  returns 0x00000000 (0000ms, 0415ms total)
T2CDC 000:500 JLINK_WriteReg(R0, 0x0001B800)  returns 0x00 (0000ms, 0415ms total)
T2CDC 000:500 JLINK_WriteReg(R1, 0x00000400)  returns 0x00 (0000ms, 0415ms total)
T2CDC 000:500 JLINK_WriteReg(R2, 0x000000FF)  returns 0x00 (0000ms, 0415ms total)
T2CDC 000:500 JLINK_WriteReg(R3, 0x00000000)  returns 0x00 (0000ms, 0415ms total)
T2CDC 000:500 JLINK_WriteReg(R4, 0x00000000)  returns 0x00 (0000ms, 0415ms total)
T2CDC 000:500 JLINK_WriteReg(R5, 0x00000000)  returns 0x00 (0000ms, 0415ms total)
T2CDC 000:500 JLINK_WriteReg(R6, 0x00000000)  returns 0x00 (0000ms, 0415ms total)
T2CDC 000:500 JLINK_WriteReg(R7, 0x00000000)  returns 0x00 (0000ms, 0415ms total)
T2CDC 000:500 JLINK_WriteReg(R8, 0x00000000)  returns 0x00 (0000ms, 0415ms total)
T2CDC 000:500 JLINK_WriteReg(R9, 0x20000474)  returns 0x00 (0000ms, 0415ms total)
T2CDC 000:500 JLINK_WriteReg(R10, 0x00000000)  returns 0x00 (0000ms, 0415ms total)
T2CDC 000:500 JLINK_WriteReg(R11, 0x00000000)  returns 0x00 (0000ms, 0415ms total)
T2CDC 000:500 JLINK_WriteReg(R12, 0x00000000)  returns 0x00 (0000ms, 0415ms total)
T2CDC 000:500 JLINK_WriteReg(R13 (SP), 0x20002000)  returns 0x00 (0000ms, 0415ms total)
T2CDC 000:500 JLINK_WriteReg(R14, 0x20000001)  returns 0x00 (0001ms, 0416ms total)
T2CDC 000:501 JLINK_WriteReg(R15 (PC), 0x20000188)  returns 0x00 (0000ms, 0416ms total)
T2CDC 000:501 JLINK_WriteReg(XPSR, 0x01000000)  returns 0x00 (0000ms, 0416ms total)
T2CDC 000:501 JLINK_WriteReg(MSP, 0x20002000)  returns 0x00 (0000ms, 0416ms total)
T2CDC 000:501 JLINK_WriteReg(PSP, 0x20002000)  returns 0x00 (0000ms, 0416ms total)
T2CDC 000:501 JLINK_WriteReg(CFBP, 0x00000000)  returns 0x00 (0000ms, 0416ms total)
T2CDC 000:501 JLINK_SetBPEx(Addr = 0x20000000, Type = 0xFFFFFFF2)  returns 0x00000004 (0000ms, 0416ms total)
T2CDC 000:501 JLINK_Go() -- CPU_ReadMem(4 bytes @ 0xE0001000) -- CPU_WriteMem(4 bytes @ 0xE0001000) (0001ms, 0417ms total)
T2CDC 000:502 JLINK_IsHalted()  returns FALSE (0001ms, 0418ms total)
T2CDC 000:504 JLINK_IsHalted() -- CPU_ReadMem(2 bytes @ 0x20000000)  returns TRUE (0002ms, 0419ms total)
T2CDC 000:506 JLINK_ReadReg(R15 (PC))  returns 0x20000000 (0000ms, 0417ms total)
T2CDC 000:506 JLINK_ClrBPEx(BPHandle = 0x00000004)  returns 0x00 (0000ms, 0417ms total)
T2CDC 000:506 JLINK_ReadReg(R0)  returns 0x00000000 (0000ms, 0417ms total)
T2CDC 000:506 JLINK_WriteReg(R0, 0x0001BC00)  returns 0x00 (0000ms, 0417ms total)
T2CDC 000:506 JLINK_WriteReg(R1, 0x00000400)  returns 0x00 (0000ms, 0417ms total)
T2CDC 000:506 JLINK_WriteReg(R2, 0x000000FF)  returns 0x00 (0000ms, 0417ms total)
T2CDC 000:506 JLINK_WriteReg(R3, 0x00000000)  returns 0x00 (0000ms, 0417ms total)
T2CDC 000:506 JLINK_WriteReg(R4, 0x00000000)  returns 0x00 (0000ms, 0417ms total)
T2CDC 000:506 JLINK_WriteReg(R5, 0x00000000)  returns 0x00 (0000ms, 0417ms total)
T2CDC 000:506 JLINK_WriteReg(R6, 0x00000000)  returns 0x00 (0000ms, 0417ms total)
T2CDC 000:506 JLINK_WriteReg(R7, 0x00000000)  returns 0x00 (0000ms, 0417ms total)
T2CDC 000:506 JLINK_WriteReg(R8, 0x00000000)  returns 0x00 (0000ms, 0417ms total)
T2CDC 000:506 JLINK_WriteReg(R9, 0x20000474)  returns 0x00 (0001ms, 0418ms total)
T2CDC 000:507 JLINK_WriteReg(R10, 0x00000000)  returns 0x00 (0000ms, 0418ms total)
T2CDC 000:507 JLINK_WriteReg(R11, 0x00000000)  returns 0x00 (0000ms, 0418ms total)
T2CDC 000:507 JLINK_WriteReg(R12, 0x00000000)  returns 0x00 (0000ms, 0418ms total)
T2CDC 000:507 JLINK_WriteReg(R13 (SP), 0x20002000)  returns 0x00 (0000ms, 0418ms total)
T2CDC 000:507 JLINK_WriteReg(R14, 0x20000001)  returns 0x00 (0000ms, 0418ms total)
T2CDC 000:507 JLINK_WriteReg(R15 (PC), 0x20000188)  returns 0x00 (0000ms, 0418ms total)
T2CDC 000:507 JLINK_WriteReg(XPSR, 0x01000000)  returns 0x00 (0000ms, 0418ms total)
T2CDC 000:507 JLINK_WriteReg(MSP, 0x20002000)  returns 0x00 (0000ms, 0418ms total)
T2CDC 000:507 JLINK_WriteReg(PSP, 0x20002000)  returns 0x00 (0000ms, 0418ms total)
T2CDC 000:507 JLINK_WriteReg(CFBP, 0x00000000)  returns 0x00 (0000ms, 0418ms total)
T2CDC 000:507 JLINK_SetBPEx(Addr = 0x20000000, Type = 0xFFFFFFF2)  returns 0x00000005 (0000ms, 0418ms total)
T2CDC 000:507 JLINK_Go() -- CPU_ReadMem(4 bytes @ 0xE0001000) -- CPU_WriteMem(4 bytes @ 0xE0001000) (0002ms, 0420ms total)
T2CDC 000:509 JLINK_IsHalted()  returns FALSE (0000ms, 0420ms total)
T2CDC 000:511 JLINK_IsHalted() -- CPU_ReadMem(2 bytes @ 0x20000000)  returns TRUE (0001ms, 0421ms total)
T2CDC 000:512 JLINK_ReadReg(R15 (PC))  returns 0x20000000 (0000ms, 0420ms total)
T2CDC 000:512 JLINK_ClrBPEx(BPHandle = 0x00000005)  returns 0x00 (0000ms, 0420ms total)
T2CDC 000:512 JLINK_ReadReg(R0)  returns 0x00000000 (0001ms, 0421ms total)
T2CDC 000:513 JLINK_WriteReg(R0, 0x0001C000)  returns 0x00 (0000ms, 0421ms total)
T2CDC 000:513 JLINK_WriteReg(R1, 0x00000400)  returns 0x00 (0000ms, 0421ms total)
T2CDC 000:513 JLINK_WriteReg(R2, 0x000000FF)  returns 0x00 (0000ms, 0421ms total)
T2CDC 000:513 JLINK_WriteReg(R3, 0x00000000)  returns 0x00 (0000ms, 0421ms total)
T2CDC 000:513 JLINK_WriteReg(R4, 0x00000000)  returns 0x00 (0000ms, 0421ms total)
T2CDC 000:513 JLINK_WriteReg(R5, 0x00000000)  returns 0x00 (0000ms, 0421ms total)
T2CDC 000:513 JLINK_WriteReg(R6, 0x00000000)  returns 0x00 (0000ms, 0421ms total)
T2CDC 000:513 JLINK_WriteReg(R7, 0x00000000)  returns 0x00 (0000ms, 0421ms total)
T2CDC 000:513 JLINK_WriteReg(R8, 0x00000000)  returns 0x00 (0000ms, 0421ms total)
T2CDC 000:513 JLINK_WriteReg(R9, 0x20000474)  returns 0x00 (0000ms, 0421ms total)
T2CDC 000:513 JLINK_WriteReg(R10, 0x00000000)  returns 0x00 (0000ms, 0421ms total)
T2CDC 000:513 JLINK_WriteReg(R11, 0x00000000)  returns 0x00 (0000ms, 0421ms total)
T2CDC 000:513 JLINK_WriteReg(R12, 0x00000000)  returns 0x00 (0000ms, 0421ms total)
T2CDC 000:513 JLINK_WriteReg(R13 (SP), 0x20002000)  returns 0x00 (0000ms, 0421ms total)
T2CDC 000:513 JLINK_WriteReg(R14, 0x20000001)  returns 0x00 (0000ms, 0421ms total)
T2CDC 000:513 JLINK_WriteReg(R15 (PC), 0x20000188)  returns 0x00 (0000ms, 0421ms total)
T2CDC 000:513 JLINK_WriteReg(XPSR, 0x01000000)  returns 0x00 (0000ms, 0421ms total)
T2CDC 000:513 JLINK_WriteReg(MSP, 0x20002000)  returns 0x00 (0000ms, 0421ms total)
T2CDC 000:513 JLINK_WriteReg(PSP, 0x20002000)  returns 0x00 (0000ms, 0421ms total)
T2CDC 000:513 JLINK_WriteReg(CFBP, 0x00000000)  returns 0x00 (0000ms, 0421ms total)
T2CDC 000:513 JLINK_SetBPEx(Addr = 0x20000000, Type = 0xFFFFFFF2)  returns 0x00000006 (0000ms, 0421ms total)
T2CDC 000:513 JLINK_Go() -- CPU_ReadMem(4 bytes @ 0xE0001000) -- CPU_WriteMem(4 bytes @ 0xE0001000) (0002ms, 0423ms total)
T2CDC 000:515 JLINK_IsHalted()  returns FALSE (0000ms, 0423ms total)
T2CDC 000:517 JLINK_IsHalted() -- CPU_ReadMem(2 bytes @ 0x20000000)  returns TRUE (0002ms, 0425ms total)
T2CDC 000:519 JLINK_ReadReg(R15 (PC))  returns 0x20000000 (0000ms, 0423ms total)
T2CDC 000:519 JLINK_ClrBPEx(BPHandle = 0x00000006)  returns 0x00 (0000ms, 0423ms total)
T2CDC 000:519 JLINK_ReadReg(R0)  returns 0x00000000 (0000ms, 0423ms total)
T2CDC 000:519 JLINK_WriteReg(R0, 0x0001C400)  returns 0x00 (0000ms, 0423ms total)
T2CDC 000:519 JLINK_WriteReg(R1, 0x00000400)  returns 0x00 (0000ms, 0423ms total)
T2CDC 000:519 JLINK_WriteReg(R2, 0x000000FF)  returns 0x00 (0000ms, 0423ms total)
T2CDC 000:519 JLINK_WriteReg(R3, 0x00000000)  returns 0x00 (0000ms, 0423ms total)
T2CDC 000:519 JLINK_WriteReg(R4, 0x00000000)  returns 0x00 (0000ms, 0423ms total)
T2CDC 000:519 JLINK_WriteReg(R5, 0x00000000)  returns 0x00 (0000ms, 0423ms total)
T2CDC 000:519 JLINK_WriteReg(R6, 0x00000000)  returns 0x00 (0000ms, 0423ms total)
T2CDC 000:519 JLINK_WriteReg(R7, 0x00000000)  returns 0x00 (0000ms, 0423ms total)
T2CDC 000:519 JLINK_WriteReg(R8, 0x00000000)  returns 0x00 (0000ms, 0423ms total)
T2CDC 000:519 JLINK_WriteReg(R9, 0x20000474)  returns 0x00 (0000ms, 0423ms total)
T2CDC 000:519 JLINK_WriteReg(R10, 0x00000000)  returns 0x00 (0000ms, 0423ms total)
T2CDC 000:519 JLINK_WriteReg(R11, 0x00000000)  returns 0x00 (0000ms, 0423ms total)
T2CDC 000:519 JLINK_WriteReg(R12, 0x00000000)  returns 0x00 (0000ms, 0423ms total)
T2CDC 000:519 JLINK_WriteReg(R13 (SP), 0x20002000)  returns 0x00 (0000ms, 0423ms total)
T2CDC 000:519 JLINK_WriteReg(R14, 0x20000001)  returns 0x00 (0000ms, 0423ms total)
T2CDC 000:519 JLINK_WriteReg(R15 (PC), 0x20000188)  returns 0x00 (0000ms, 0423ms total)
T2CDC 000:519 JLINK_WriteReg(XPSR, 0x01000000)  returns 0x00 (0000ms, 0423ms total)
T2CDC 000:519 JLINK_WriteReg(MSP, 0x20002000)  returns 0x00 (0000ms, 0423ms total)
T2CDC 000:519 JLINK_WriteReg(PSP, 0x20002000)  returns 0x00 (0000ms, 0423ms total)
T2CDC 000:519 JLINK_WriteReg(CFBP, 0x00000000)  returns 0x00 (0000ms, 0423ms total)
T2CDC 000:519 JLINK_SetBPEx(Addr = 0x20000000, Type = 0xFFFFFFF2)  returns 0x00000007 (0000ms, 0423ms total)
T2CDC 000:519 JLINK_Go() -- CPU_ReadMem(4 bytes @ 0xE0001000) -- CPU_WriteMem(4 bytes @ 0xE0001000) (0002ms, 0425ms total)
T2CDC 000:521 JLINK_IsHalted()  returns FALSE (0000ms, 0425ms total)
T2CDC 000:523 JLINK_IsHalted() -- CPU_ReadMem(2 bytes @ 0x20000000)  returns TRUE (0002ms, 0427ms total)
T2CDC 000:525 JLINK_ReadReg(R15 (PC))  returns 0x20000000 (0000ms, 0425ms total)
T2CDC 000:525 JLINK_ClrBPEx(BPHandle = 0x00000007)  returns 0x00 (0000ms, 0425ms total)
T2CDC 000:525 JLINK_ReadReg(R0)  returns 0x00000000 (0000ms, 0425ms total)
T2CDC 000:525 JLINK_WriteReg(R0, 0x0001C800)  returns 0x00 (0000ms, 0425ms total)
T2CDC 000:525 JLINK_WriteReg(R1, 0x00000400)  returns 0x00 (0000ms, 0425ms total)
T2CDC 000:525 JLINK_WriteReg(R2, 0x000000FF)  returns 0x00 (0000ms, 0425ms total)
T2CDC 000:525 JLINK_WriteReg(R3, 0x00000000)  returns 0x00 (0000ms, 0425ms total)
T2CDC 000:525 JLINK_WriteReg(R4, 0x00000000)  returns 0x00 (0000ms, 0425ms total)
T2CDC 000:525 JLINK_WriteReg(R5, 0x00000000)  returns 0x00 (0000ms, 0425ms total)
T2CDC 000:525 JLINK_WriteReg(R6, 0x00000000)  returns 0x00 (0000ms, 0425ms total)
T2CDC 000:525 JLINK_WriteReg(R7, 0x00000000)  returns 0x00 (0000ms, 0425ms total)
T2CDC 000:525 JLINK_WriteReg(R8, 0x00000000)  returns 0x00 (0000ms, 0425ms total)
T2CDC 000:525 JLINK_WriteReg(R9, 0x20000474)  returns 0x00 (0000ms, 0425ms total)
T2CDC 000:525 JLINK_WriteReg(R10, 0x00000000)  returns 0x00 (0000ms, 0425ms total)
T2CDC 000:525 JLINK_WriteReg(R11, 0x00000000)  returns 0x00 (0000ms, 0425ms total)
T2CDC 000:525 JLINK_WriteReg(R12, 0x00000000)  returns 0x00 (0000ms, 0425ms total)
T2CDC 000:525 JLINK_WriteReg(R13 (SP), 0x20002000)  returns 0x00 (0000ms, 0425ms total)
T2CDC 000:525 JLINK_WriteReg(R14, 0x20000001)  returns 0x00 (0000ms, 0425ms total)
T2CDC 000:525 JLINK_WriteReg(R15 (PC), 0x20000188)  returns 0x00 (0000ms, 0425ms total)
T2CDC 000:525 JLINK_WriteReg(XPSR, 0x01000000)  returns 0x00 (0000ms, 0425ms total)
T2CDC 000:525 JLINK_WriteReg(MSP, 0x20002000)  returns 0x00 (0000ms, 0425ms total)
T2CDC 000:525 JLINK_WriteReg(PSP, 0x20002000)  returns 0x00 (0000ms, 0425ms total)
T2CDC 000:525 JLINK_WriteReg(CFBP, 0x00000000)  returns 0x00 (0000ms, 0425ms total)
T2CDC 000:525 JLINK_SetBPEx(Addr = 0x20000000, Type = 0xFFFFFFF2)  returns 0x00000008 (0000ms, 0425ms total)
T2CDC 000:525 JLINK_Go() -- CPU_ReadMem(4 bytes @ 0xE0001000) -- CPU_WriteMem(4 bytes @ 0xE0001000) (0002ms, 0427ms total)
T2CDC 000:527 JLINK_IsHalted()  returns FALSE (0000ms, 0427ms total)
T2CDC 000:529 JLINK_IsHalted() -- CPU_ReadMem(2 bytes @ 0x20000000)  returns TRUE (0001ms, 0428ms total)
T2CDC 000:530 JLINK_ReadReg(R15 (PC))  returns 0x20000000 (0000ms, 0427ms total)
T2CDC 000:530 JLINK_ClrBPEx(BPHandle = 0x00000008)  returns 0x00 (0000ms, 0427ms total)
T2CDC 000:530 JLINK_ReadReg(R0)  returns 0x00000000 (0000ms, 0427ms total)
T2CDC 000:531 JLINK_WriteReg(R0, 0x0001CC00)  returns 0x00 (0000ms, 0427ms total)
T2CDC 000:531 JLINK_WriteReg(R1, 0x00000400)  returns 0x00 (0000ms, 0427ms total)
T2CDC 000:531 JLINK_WriteReg(R2, 0x000000FF)  returns 0x00 (0000ms, 0427ms total)
T2CDC 000:531 JLINK_WriteReg(R3, 0x00000000)  returns 0x00 (0000ms, 0427ms total)
T2CDC 000:531 JLINK_WriteReg(R4, 0x00000000)  returns 0x00 (0000ms, 0427ms total)
T2CDC 000:531 JLINK_WriteReg(R5, 0x00000000)  returns 0x00 (0000ms, 0427ms total)
T2CDC 000:531 JLINK_WriteReg(R6, 0x00000000)  returns 0x00 (0000ms, 0427ms total)
T2CDC 000:531 JLINK_WriteReg(R7, 0x00000000)  returns 0x00 (0000ms, 0427ms total)
T2CDC 000:531 JLINK_WriteReg(R8, 0x00000000)  returns 0x00 (0000ms, 0427ms total)
T2CDC 000:531 JLINK_WriteReg(R9, 0x20000474)  returns 0x00 (0000ms, 0427ms total)
T2CDC 000:531 JLINK_WriteReg(R10, 0x00000000)  returns 0x00 (0000ms, 0427ms total)
T2CDC 000:531 JLINK_WriteReg(R11, 0x00000000)  returns 0x00 (0000ms, 0427ms total)
T2CDC 000:531 JLINK_WriteReg(R12, 0x00000000)  returns 0x00 (0000ms, 0427ms total)
T2CDC 000:531 JLINK_WriteReg(R13 (SP), 0x20002000)  returns 0x00 (0000ms, 0427ms total)
T2CDC 000:531 JLINK_WriteReg(R14, 0x20000001)  returns 0x00 (0000ms, 0427ms total)
T2CDC 000:531 JLINK_WriteReg(R15 (PC), 0x20000188)  returns 0x00 (0000ms, 0427ms total)
T2CDC 000:531 JLINK_WriteReg(XPSR, 0x01000000)  returns 0x00 (0000ms, 0427ms total)
T2CDC 000:531 JLINK_WriteReg(MSP, 0x20002000)  returns 0x00 (0000ms, 0427ms total)
T2CDC 000:531 JLINK_WriteReg(PSP, 0x20002000)  returns 0x00 (0000ms, 0427ms total)
T2CDC 000:531 JLINK_WriteReg(CFBP, 0x00000000)  returns 0x00 (0000ms, 0427ms total)
T2CDC 000:531 JLINK_SetBPEx(Addr = 0x20000000, Type = 0xFFFFFFF2)  returns 0x00000009 (0000ms, 0427ms total)
T2CDC 000:531 JLINK_Go() -- CPU_ReadMem(4 bytes @ 0xE0001000) -- CPU_WriteMem(4 bytes @ 0xE0001000) (0002ms, 0429ms total)
T2CDC 000:533 JLINK_IsHalted()  returns FALSE (0000ms, 0429ms total)
T2CDC 000:534 JLINK_IsHalted() -- CPU_ReadMem(2 bytes @ 0x20000000)  returns TRUE (0002ms, 0431ms total)
T2CDC 000:536 JLINK_ReadReg(R15 (PC))  returns 0x20000000 (0000ms, 0429ms total)
T2CDC 000:536 JLINK_ClrBPEx(BPHandle = 0x00000009)  returns 0x00 (0000ms, 0429ms total)
T2CDC 000:536 JLINK_ReadReg(R0)  returns 0x00000000 (0000ms, 0429ms total)
T2CDC 000:536 JLINK_WriteReg(R0, 0x0001D000)  returns 0x00 (0000ms, 0429ms total)
T2CDC 000:536 JLINK_WriteReg(R1, 0x00000400)  returns 0x00 (0000ms, 0429ms total)
T2CDC 000:536 JLINK_WriteReg(R2, 0x000000FF)  returns 0x00 (0001ms, 0430ms total)
T2CDC 000:537 JLINK_WriteReg(R3, 0x00000000)  returns 0x00 (0000ms, 0430ms total)
T2CDC 000:537 JLINK_WriteReg(R4, 0x00000000)  returns 0x00 (0000ms, 0430ms total)
T2CDC 000:537 JLINK_WriteReg(R5, 0x00000000)  returns 0x00 (0000ms, 0430ms total)
T2CDC 000:537 JLINK_WriteReg(R6, 0x00000000)  returns 0x00 (0000ms, 0430ms total)
T2CDC 000:537 JLINK_WriteReg(R7, 0x00000000)  returns 0x00 (0000ms, 0430ms total)
T2CDC 000:537 JLINK_WriteReg(R8, 0x00000000)  returns 0x00 (0000ms, 0430ms total)
T2CDC 000:537 JLINK_WriteReg(R9, 0x20000474)  returns 0x00 (0000ms, 0430ms total)
T2CDC 000:537 JLINK_WriteReg(R10, 0x00000000)  returns 0x00 (0000ms, 0430ms total)
T2CDC 000:537 JLINK_WriteReg(R11, 0x00000000)  returns 0x00 (0000ms, 0430ms total)
T2CDC 000:537 JLINK_WriteReg(R12, 0x00000000)  returns 0x00 (0000ms, 0430ms total)
T2CDC 000:537 JLINK_WriteReg(R13 (SP), 0x20002000)  returns 0x00 (0000ms, 0430ms total)
T2CDC 000:537 JLINK_WriteReg(R14, 0x20000001)  returns 0x00 (0000ms, 0430ms total)
T2CDC 000:537 JLINK_WriteReg(R15 (PC), 0x20000188)  returns 0x00 (0000ms, 0430ms total)
T2CDC 000:537 JLINK_WriteReg(XPSR, 0x01000000)  returns 0x00 (0000ms, 0430ms total)
T2CDC 000:537 JLINK_WriteReg(MSP, 0x20002000)  returns 0x00 (0000ms, 0430ms total)
T2CDC 000:537 JLINK_WriteReg(PSP, 0x20002000)  returns 0x00 (0000ms, 0430ms total)
T2CDC 000:537 JLINK_WriteReg(CFBP, 0x00000000)  returns 0x00 (0000ms, 0430ms total)
T2CDC 000:537 JLINK_SetBPEx(Addr = 0x20000000, Type = 0xFFFFFFF2)  returns 0x0000000A (0000ms, 0430ms total)
T2CDC 000:537 JLINK_Go() -- CPU_ReadMem(4 bytes @ 0xE0001000) -- CPU_WriteMem(4 bytes @ 0xE0001000) (0002ms, 0432ms total)
T2CDC 000:539 JLINK_IsHalted()  returns FALSE (0000ms, 0432ms total)
T2CDC 000:540 JLINK_IsHalted() -- CPU_ReadMem(2 bytes @ 0x20000000)  returns TRUE (0002ms, 0434ms total)
T2CDC 000:542 JLINK_ReadReg(R15 (PC))  returns 0x20000000 (0000ms, 0432ms total)
T2CDC 000:542 JLINK_ClrBPEx(BPHandle = 0x0000000A)  returns 0x00 (0000ms, 0432ms total)
T2CDC 000:542 JLINK_ReadReg(R0)  returns 0x00000000 (0000ms, 0432ms total)
T2CDC 000:542 JLINK_WriteReg(R0, 0x00000001)  returns 0x00 (0000ms, 0432ms total)
T2CDC 000:542 JLINK_WriteReg(R1, 0x00000400)  returns 0x00 (0000ms, 0432ms total)
T2CDC 000:542 JLINK_WriteReg(R2, 0x000000FF)  returns 0x00 (0000ms, 0432ms total)
T2CDC 000:542 JLINK_WriteReg(R3, 0x00000000)  returns 0x00 (0000ms, 0432ms total)
T2CDC 000:542 JLINK_WriteReg(R4, 0x00000000)  returns 0x00 (0000ms, 0432ms total)
T2CDC 000:542 JLINK_WriteReg(R5, 0x00000000)  returns 0x00 (0000ms, 0432ms total)
T2CDC 000:542 JLINK_WriteReg(R6, 0x00000000)  returns 0x00 (0000ms, 0432ms total)
T2CDC 000:542 JLINK_WriteReg(R7, 0x00000000)  returns 0x00 (0000ms, 0432ms total)
T2CDC 000:542 JLINK_WriteReg(R8, 0x00000000)  returns 0x00 (0000ms, 0432ms total)
T2CDC 000:542 JLINK_WriteReg(R9, 0x20000474)  returns 0x00 (0000ms, 0432ms total)
T2CDC 000:542 JLINK_WriteReg(R10, 0x00000000)  returns 0x00 (0000ms, 0432ms total)
T2CDC 000:542 JLINK_WriteReg(R11, 0x00000000)  returns 0x00 (0000ms, 0432ms total)
T2CDC 000:542 JLINK_WriteReg(R12, 0x00000000)  returns 0x00 (0000ms, 0432ms total)
T2CDC 000:543 JLINK_WriteReg(R13 (SP), 0x20002000)  returns 0x00 (0000ms, 0433ms total)
T2CDC 000:543 JLINK_WriteReg(R14, 0x20000001)  returns 0x00 (0000ms, 0433ms total)
T2CDC 000:543 JLINK_WriteReg(R15 (PC), 0x20000058)  returns 0x00 (0000ms, 0433ms total)
T2CDC 000:543 JLINK_WriteReg(XPSR, 0x01000000)  returns 0x00 (0000ms, 0433ms total)
T2CDC 000:543 JLINK_WriteReg(MSP, 0x20002000)  returns 0x00 (0000ms, 0433ms total)
T2CDC 000:543 JLINK_WriteReg(PSP, 0x20002000)  returns 0x00 (0000ms, 0433ms total)
T2CDC 000:543 JLINK_WriteReg(CFBP, 0x00000000)  returns 0x00 (0000ms, 0433ms total)
T2CDC 000:543 JLINK_SetBPEx(Addr = 0x20000000, Type = 0xFFFFFFF2)  returns 0x0000000B (0000ms, 0433ms total)
T2CDC 000:543 JLINK_Go() -- CPU_ReadMem(4 bytes @ 0xE0001000) -- CPU_WriteMem(4 bytes @ 0xE0001000) (0001ms, 0434ms total)
T2CDC 000:544 JLINK_IsHalted() -- CPU_ReadMem(2 bytes @ 0x20000000)  returns TRUE (0002ms, 0436ms total)
T2CDC 000:546 JLINK_ReadReg(R15 (PC))  returns 0x20000000 (0000ms, 0434ms total)
T2CDC 000:546 JLINK_ClrBPEx(BPHandle = 0x0000000B)  returns 0x00 (0000ms, 0434ms total)
T2CDC 000:546 JLINK_ReadReg(R0)  returns 0x00000000 (0000ms, 0434ms total)
T2CDC 000:600 JLINK_WriteMem(0x20000000, 0x0478 Bytes, ...) - Data: 00 BE 0A E0 0D 78 2D 06 68 40 08 24 40 00 00 D3 ... -- CPU_WriteMem(1144 bytes @ 0x20000000)  returns 0x478 (0004ms, 0438ms total)
T2CDC 000:604 JLINK_WriteReg(R0, 0x00000000)  returns 0x00 (0000ms, 0438ms total)
T2CDC 000:604 JLINK_WriteReg(R1, 0x00F42400)  returns 0x00 (0000ms, 0438ms total)
T2CDC 000:604 JLINK_WriteReg(R2, 0x00000002)  returns 0x00 (0000ms, 0438ms total)
T2CDC 000:604 JLINK_WriteReg(R3, 0x00000000)  returns 0x00 (0000ms, 0438ms total)
T2CDC 000:604 JLINK_WriteReg(R4, 0x00000000)  returns 0x00 (0000ms, 0438ms total)
T2CDC 000:604 JLINK_WriteReg(R5, 0x00000000)  returns 0x00 (0000ms, 0438ms total)
T2CDC 000:604 JLINK_WriteReg(R6, 0x00000000)  returns 0x00 (0000ms, 0438ms total)
T2CDC 000:604 JLINK_WriteReg(R7, 0x00000000)  returns 0x00 (0000ms, 0438ms total)
T2CDC 000:604 JLINK_WriteReg(R8, 0x00000000)  returns 0x00 (0000ms, 0438ms total)
T2CDC 000:604 JLINK_WriteReg(R9, 0x20000474)  returns 0x00 (0000ms, 0438ms total)
T2CDC 000:604 JLINK_WriteReg(R10, 0x00000000)  returns 0x00 (0000ms, 0438ms total)
T2CDC 000:604 JLINK_WriteReg(R11, 0x00000000)  returns 0x00 (0000ms, 0438ms total)
T2CDC 000:604 JLINK_WriteReg(R12, 0x00000000)  returns 0x00 (0000ms, 0438ms total)
T2CDC 000:604 JLINK_WriteReg(R13 (SP), 0x20002000)  returns 0x00 (0000ms, 0438ms total)
T2CDC 000:604 JLINK_WriteReg(R14, 0x20000001)  returns 0x00 (0001ms, 0439ms total)
T2CDC 000:605 JLINK_WriteReg(R15 (PC), 0x20000028)  returns 0x00 (0000ms, 0439ms total)
T2CDC 000:605 JLINK_WriteReg(XPSR, 0x01000000)  returns 0x00 (0000ms, 0439ms total)
T2CDC 000:605 JLINK_WriteReg(MSP, 0x20002000)  returns 0x00 (0000ms, 0439ms total)
T2CDC 000:605 JLINK_WriteReg(PSP, 0x20002000)  returns 0x00 (0000ms, 0439ms total)
T2CDC 000:605 JLINK_WriteReg(CFBP, 0x00000000)  returns 0x00 (0000ms, 0439ms total)
T2CDC 000:605 JLINK_SetBPEx(Addr = 0x20000000, Type = 0xFFFFFFF2) -- CPU_ReadMem(2 bytes @ 0x20000000)  returns 0x0000000C (0000ms, 0439ms total)
T2CDC 000:605 JLINK_Go() -- CPU_WriteMem(2 bytes @ 0x20000000) -- CPU_ReadMem(4 bytes @ 0xE0001000) -- CPU_WriteMem(4 bytes @ 0xE0001000) (0003ms, 0442ms total)
T2CDC 000:608 JLINK_IsHalted() -- CPU_ReadMem(2 bytes @ 0x20000000)  returns TRUE (0002ms, 0444ms total)
T2CDC 000:610 JLINK_ReadReg(R15 (PC))  returns 0x20000000 (0000ms, 0442ms total)
T2CDC 000:610 JLINK_ClrBPEx(BPHandle = 0x0000000C)  returns 0x00 (0000ms, 0442ms total)
T2CDC 000:610 JLINK_ReadReg(R0)  returns 0x00000000 (0000ms, 0442ms total)
T2CDC 000:610 JLINK_WriteMem(0x20000478, 0x0388 Bytes, ...) - Data: D0 22 00 20 D5 B0 01 00 EF B0 01 00 F1 B0 01 00 ... -- CPU_WriteMem(904 bytes @ 0x20000478)  returns 0x388 (0003ms, 0445ms total)
T2CDC 000:613 JLINK_WriteMem(0x20000800, 0x0078 Bytes, ...) - Data: 05 30 01 F0 C2 F8 00 28 08 D0 07 48 00 1D 04 60 ... -- CPU_WriteMem(120 bytes @ 0x20000800)  returns 0x78 (0001ms, 0446ms total)
T2CDC 000:614 JLINK_WriteReg(R0, 0x0001B000)  returns 0x00 (0000ms, 0446ms total)
T2CDC 000:614 JLINK_WriteReg(R1, 0x00000400)  returns 0x00 (0000ms, 0446ms total)
T2CDC 000:614 JLINK_WriteReg(R2, 0x20000478)  returns 0x00 (0000ms, 0446ms total)
T2CDC 000:614 JLINK_WriteReg(R3, 0x00000000)  returns 0x00 (0000ms, 0446ms total)
T2CDC 000:614 JLINK_WriteReg(R4, 0x00000000)  returns 0x00 (0000ms, 0446ms total)
T2CDC 000:614 JLINK_WriteReg(R5, 0x00000000)  returns 0x00 (0000ms, 0446ms total)
T2CDC 000:614 JLINK_WriteReg(R6, 0x00000000)  returns 0x00 (0000ms, 0446ms total)
T2CDC 000:614 JLINK_WriteReg(R7, 0x00000000)  returns 0x00 (0000ms, 0446ms total)
T2CDC 000:614 JLINK_WriteReg(R8, 0x00000000)  returns 0x00 (0000ms, 0446ms total)
T2CDC 000:614 JLINK_WriteReg(R9, 0x20000474)  returns 0x00 (0000ms, 0446ms total)
T2CDC 000:614 JLINK_WriteReg(R10, 0x00000000)  returns 0x00 (0000ms, 0446ms total)
T2CDC 000:614 JLINK_WriteReg(R11, 0x00000000)  returns 0x00 (0000ms, 0446ms total)
T2CDC 000:614 JLINK_WriteReg(R12, 0x00000000)  returns 0x00 (0000ms, 0446ms total)
T2CDC 000:614 JLINK_WriteReg(R13 (SP), 0x20002000)  returns 0x00 (0000ms, 0446ms total)
T2CDC 000:614 JLINK_WriteReg(R14, 0x20000001)  returns 0x00 (0000ms, 0446ms total)
T2CDC 000:614 JLINK_WriteReg(R15 (PC), 0x200001C4)  returns 0x00 (0000ms, 0446ms total)
T2CDC 000:614 JLINK_WriteReg(XPSR, 0x01000000)  returns 0x00 (0000ms, 0446ms total)
T2CDC 000:614 JLINK_WriteReg(MSP, 0x20002000)  returns 0x00 (0000ms, 0446ms total)
T2CDC 000:614 JLINK_WriteReg(PSP, 0x20002000)  returns 0x00 (0000ms, 0446ms total)
T2CDC 000:614 JLINK_WriteReg(CFBP, 0x00000000)  returns 0x00 (0000ms, 0446ms total)
T2CDC 000:614 JLINK_SetBPEx(Addr = 0x20000000, Type = 0xFFFFFFF2)  returns 0x0000000D (0000ms, 0446ms total)
T2CDC 000:614 JLINK_Go() -- CPU_ReadMem(4 bytes @ 0xE0001000) -- CPU_WriteMem(4 bytes @ 0xE0001000) (0003ms, 0449ms total)
T2CDC 000:617 JLINK_IsHalted()  returns FALSE (0000ms, 0449ms total)
T2CDC 000:621 JLINK_IsHalted()  returns FALSE (0000ms, 0449ms total)
T2CDC 000:623 JLINK_IsHalted()  returns FALSE (0000ms, 0449ms total)
T2CDC 000:624 JLINK_IsHalted()  returns FALSE (0000ms, 0449ms total)
T2CDC 000:627 JLINK_IsHalted()  returns FALSE (0000ms, 0449ms total)
T2CDC 000:628 JLINK_IsHalted() -- CPU_ReadMem(2 bytes @ 0x20000000)  returns TRUE (0002ms, 0451ms total)
T2CDC 000:630 JLINK_ReadReg(R15 (PC))  returns 0x20000000 (0000ms, 0449ms total)
T2CDC 000:630 JLINK_ClrBPEx(BPHandle = 0x0000000D)  returns 0x00 (0000ms, 0449ms total)
T2CDC 000:630 JLINK_ReadReg(R0)  returns 0x00000000 (0000ms, 0449ms total)
T2CDC 000:631 JLINK_WriteMem(0x20000478, 0x0388 Bytes, ...) - Data: CD FE 00 28 05 D0 1F 49 1D 48 48 60 C8 13 1E 49 ... -- CPU_WriteMem(904 bytes @ 0x20000478)  returns 0x388 (0003ms, 0452ms total)
T2CDC 000:634 JLINK_WriteMem(0x20000800, 0x0078 Bytes, ...) - Data: 00 91 81 78 6A 46 51 70 00 78 0A 4A 69 46 00 F0 ... -- CPU_WriteMem(120 bytes @ 0x20000800)  returns 0x78 (0001ms, 0453ms total)
T2CDC 000:635 JLINK_WriteReg(R0, 0x0001B400)  returns 0x00 (0000ms, 0453ms total)
T2CDC 000:635 JLINK_WriteReg(R1, 0x00000400)  returns 0x00 (0000ms, 0453ms total)
T2CDC 000:635 JLINK_WriteReg(R2, 0x20000478)  returns 0x00 (0000ms, 0453ms total)
T2CDC 000:635 JLINK_WriteReg(R3, 0x00000000)  returns 0x00 (0000ms, 0453ms total)
T2CDC 000:635 JLINK_WriteReg(R4, 0x00000000)  returns 0x00 (0000ms, 0453ms total)
T2CDC 000:635 JLINK_WriteReg(R5, 0x00000000)  returns 0x00 (0000ms, 0453ms total)
T2CDC 000:635 JLINK_WriteReg(R6, 0x00000000)  returns 0x00 (0000ms, 0453ms total)
T2CDC 000:635 JLINK_WriteReg(R7, 0x00000000)  returns 0x00 (0000ms, 0453ms total)
T2CDC 000:635 JLINK_WriteReg(R8, 0x00000000)  returns 0x00 (0000ms, 0453ms total)
T2CDC 000:635 JLINK_WriteReg(R9, 0x20000474)  returns 0x00 (0000ms, 0453ms total)
T2CDC 000:635 JLINK_WriteReg(R10, 0x00000000)  returns 0x00 (0000ms, 0453ms total)
T2CDC 000:635 JLINK_WriteReg(R11, 0x00000000)  returns 0x00 (0000ms, 0453ms total)
T2CDC 000:635 JLINK_WriteReg(R12, 0x00000000)  returns 0x00 (0000ms, 0453ms total)
T2CDC 000:635 JLINK_WriteReg(R13 (SP), 0x20002000)  returns 0x00 (0000ms, 0453ms total)
T2CDC 000:635 JLINK_WriteReg(R14, 0x20000001)  returns 0x00 (0000ms, 0453ms total)
T2CDC 000:635 JLINK_WriteReg(R15 (PC), 0x200001C4)  returns 0x00 (0000ms, 0453ms total)
T2CDC 000:635 JLINK_WriteReg(XPSR, 0x01000000)  returns 0x00 (0000ms, 0453ms total)
T2CDC 000:635 JLINK_WriteReg(MSP, 0x20002000)  returns 0x00 (0000ms, 0453ms total)
T2CDC 000:635 JLINK_WriteReg(PSP, 0x20002000)  returns 0x00 (0000ms, 0453ms total)
T2CDC 000:635 JLINK_WriteReg(CFBP, 0x00000000)  returns 0x00 (0000ms, 0453ms total)
T2CDC 000:635 JLINK_SetBPEx(Addr = 0x20000000, Type = 0xFFFFFFF2)  returns 0x0000000E (0000ms, 0453ms total)
T2CDC 000:635 JLINK_Go() -- CPU_ReadMem(4 bytes @ 0xE0001000) -- CPU_WriteMem(4 bytes @ 0xE0001000) (0002ms, 0455ms total)
T2CDC 000:637 JLINK_IsHalted()  returns FALSE (0001ms, 0456ms total)
T2CDC 000:639 JLINK_IsHalted()  returns FALSE (0000ms, 0455ms total)
T2CDC 000:641 JLINK_IsHalted()  returns FALSE (0000ms, 0455ms total)
T2CDC 000:643 JLINK_IsHalted()  returns FALSE (0000ms, 0455ms total)
T2CDC 000:645 JLINK_IsHalted()  returns FALSE (0000ms, 0455ms total)
T2CDC 000:647 JLINK_IsHalted()  returns FALSE (0001ms, 0456ms total)
T2CDC 000:649 JLINK_IsHalted() -- CPU_ReadMem(2 bytes @ 0x20000000)  returns TRUE (0003ms, 0458ms total)
T2CDC 000:652 JLINK_ReadReg(R15 (PC))  returns 0x20000000 (0000ms, 0455ms total)
T2CDC 000:652 JLINK_ClrBPEx(BPHandle = 0x0000000E)  returns 0x00 (0000ms, 0455ms total)
T2CDC 000:652 JLINK_ReadReg(R0)  returns 0x00000000 (0000ms, 0455ms total)
T2CDC 000:652 JLINK_WriteMem(0x20000478, 0x0388 Bytes, ...) - Data: 00 28 05 D0 00 68 03 7C 00 2B 03 D0 08 20 70 47 ... -- CPU_WriteMem(904 bytes @ 0x20000478)  returns 0x388 (0003ms, 0458ms total)
T2CDC 000:655 JLINK_WriteMem(0x20000800, 0x0078 Bytes, ...) - Data: 61 18 7D 5C CF 19 79 78 00 29 0B D0 B1 68 0A 22 ... -- CPU_WriteMem(120 bytes @ 0x20000800)  returns 0x78 (0001ms, 0459ms total)
T2CDC 000:656 JLINK_WriteReg(R0, 0x0001B800)  returns 0x00 (0000ms, 0459ms total)
T2CDC 000:656 JLINK_WriteReg(R1, 0x00000400)  returns 0x00 (0000ms, 0459ms total)
T2CDC 000:656 JLINK_WriteReg(R2, 0x20000478)  returns 0x00 (0000ms, 0459ms total)
T2CDC 000:656 JLINK_WriteReg(R3, 0x00000000)  returns 0x00 (0000ms, 0459ms total)
T2CDC 000:656 JLINK_WriteReg(R4, 0x00000000)  returns 0x00 (0000ms, 0459ms total)
T2CDC 000:656 JLINK_WriteReg(R5, 0x00000000)  returns 0x00 (0000ms, 0459ms total)
T2CDC 000:656 JLINK_WriteReg(R6, 0x00000000)  returns 0x00 (0000ms, 0459ms total)
T2CDC 000:656 JLINK_WriteReg(R7, 0x00000000)  returns 0x00 (0000ms, 0459ms total)
T2CDC 000:656 JLINK_WriteReg(R8, 0x00000000)  returns 0x00 (0000ms, 0459ms total)
T2CDC 000:656 JLINK_WriteReg(R9, 0x20000474)  returns 0x00 (0000ms, 0459ms total)
T2CDC 000:656 JLINK_WriteReg(R10, 0x00000000)  returns 0x00 (0000ms, 0459ms total)
T2CDC 000:656 JLINK_WriteReg(R11, 0x00000000)  returns 0x00 (0000ms, 0459ms total)
T2CDC 000:656 JLINK_WriteReg(R12, 0x00000000)  returns 0x00 (0000ms, 0459ms total)
T2CDC 000:656 JLINK_WriteReg(R13 (SP), 0x20002000)  returns 0x00 (0000ms, 0459ms total)
T2CDC 000:656 JLINK_WriteReg(R14, 0x20000001)  returns 0x00 (0000ms, 0459ms total)
T2CDC 000:656 JLINK_WriteReg(R15 (PC), 0x200001C4)  returns 0x00 (0000ms, 0459ms total)
T2CDC 000:656 JLINK_WriteReg(XPSR, 0x01000000)  returns 0x00 (0000ms, 0459ms total)
T2CDC 000:656 JLINK_WriteReg(MSP, 0x20002000)  returns 0x00 (0000ms, 0459ms total)
T2CDC 000:656 JLINK_WriteReg(PSP, 0x20002000)  returns 0x00 (0000ms, 0459ms total)
T2CDC 000:656 JLINK_WriteReg(CFBP, 0x00000000)  returns 0x00 (0001ms, 0460ms total)
T2CDC 000:657 JLINK_SetBPEx(Addr = 0x20000000, Type = 0xFFFFFFF2)  returns 0x0000000F (0000ms, 0460ms total)
T2CDC 000:657 JLINK_Go() -- CPU_ReadMem(4 bytes @ 0xE0001000) -- CPU_WriteMem(4 bytes @ 0xE0001000) (0002ms, 0462ms total)
T2CDC 000:659 JLINK_IsHalted()  returns FALSE (0000ms, 0462ms total)
T2CDC 000:662 JLINK_IsHalted()  returns FALSE (0000ms, 0462ms total)
T2CDC 000:665 JLINK_IsHalted()  returns FALSE (0000ms, 0462ms total)
T2CDC 000:667 JLINK_IsHalted()  returns FALSE (0000ms, 0462ms total)
T2CDC 000:669 JLINK_IsHalted()  returns FALSE (0000ms, 0462ms total)
T2CDC 000:671 JLINK_IsHalted() -- CPU_ReadMem(2 bytes @ 0x20000000)  returns TRUE (0002ms, 0464ms total)
T2CDC 000:673 JLINK_ReadReg(R15 (PC))  returns 0x20000000 (0000ms, 0462ms total)
T2CDC 000:673 JLINK_ClrBPEx(BPHandle = 0x0000000F)  returns 0x00 (0000ms, 0462ms total)
T2CDC 000:673 JLINK_ReadReg(R0)  returns 0x00000000 (0000ms, 0462ms total)
T2CDC 000:673 JLINK_WriteMem(0x20000478, 0x0388 Bytes, ...) - Data: 02 29 06 D0 07 23 18 46 70 BD 0E 30 C2 B2 2A 55 ... -- CPU_WriteMem(904 bytes @ 0x20000478)  returns 0x388 (0004ms, 0466ms total)
T2CDC 000:677 JLINK_WriteMem(0x20000800, 0x0078 Bytes, ...) - Data: F8 BD 00 00 BC 18 00 20 00 15 01 40 40 13 01 40 ... -- CPU_WriteMem(120 bytes @ 0x20000800)  returns 0x78 (0001ms, 0467ms total)
T2CDC 000:678 JLINK_WriteReg(R0, 0x0001BC00)  returns 0x00 (0000ms, 0467ms total)
T2CDC 000:678 JLINK_WriteReg(R1, 0x00000400)  returns 0x00 (0000ms, 0467ms total)
T2CDC 000:678 JLINK_WriteReg(R2, 0x20000478)  returns 0x00 (0000ms, 0467ms total)
T2CDC 000:678 JLINK_WriteReg(R3, 0x00000000)  returns 0x00 (0000ms, 0467ms total)
T2CDC 000:678 JLINK_WriteReg(R4, 0x00000000)  returns 0x00 (0000ms, 0467ms total)
T2CDC 000:678 JLINK_WriteReg(R5, 0x00000000)  returns 0x00 (0000ms, 0467ms total)
T2CDC 000:678 JLINK_WriteReg(R6, 0x00000000)  returns 0x00 (0000ms, 0467ms total)
T2CDC 000:678 JLINK_WriteReg(R7, 0x00000000)  returns 0x00 (0000ms, 0467ms total)
T2CDC 000:678 JLINK_WriteReg(R8, 0x00000000)  returns 0x00 (0000ms, 0467ms total)
T2CDC 000:678 JLINK_WriteReg(R9, 0x20000474)  returns 0x00 (0000ms, 0467ms total)
T2CDC 000:678 JLINK_WriteReg(R10, 0x00000000)  returns 0x00 (0000ms, 0467ms total)
T2CDC 000:678 JLINK_WriteReg(R11, 0x00000000)  returns 0x00 (0000ms, 0467ms total)
T2CDC 000:678 JLINK_WriteReg(R12, 0x00000000)  returns 0x00 (0000ms, 0467ms total)
T2CDC 000:678 JLINK_WriteReg(R13 (SP), 0x20002000)  returns 0x00 (0000ms, 0467ms total)
T2CDC 000:678 JLINK_WriteReg(R14, 0x20000001)  returns 0x00 (0000ms, 0467ms total)
T2CDC 000:678 JLINK_WriteReg(R15 (PC), 0x200001C4)  returns 0x00 (0000ms, 0467ms total)
T2CDC 000:678 JLINK_WriteReg(XPSR, 0x01000000)  returns 0x00 (0000ms, 0467ms total)
T2CDC 000:678 JLINK_WriteReg(MSP, 0x20002000)  returns 0x00 (0000ms, 0467ms total)
T2CDC 000:678 JLINK_WriteReg(PSP, 0x20002000)  returns 0x00 (0000ms, 0467ms total)
T2CDC 000:678 JLINK_WriteReg(CFBP, 0x00000000)  returns 0x00 (0000ms, 0467ms total)
T2CDC 000:678 JLINK_SetBPEx(Addr = 0x20000000, Type = 0xFFFFFFF2)  returns 0x00000010 (0000ms, 0467ms total)
T2CDC 000:678 JLINK_Go() -- CPU_ReadMem(4 bytes @ 0xE0001000) -- CPU_WriteMem(4 bytes @ 0xE0001000) (0002ms, 0469ms total)
T2CDC 000:680 JLINK_IsHalted()  returns FALSE (0000ms, 0469ms total)
T2CDC 000:682 JLINK_IsHalted()  returns FALSE (0001ms, 0470ms total)
T2CDC 000:684 JLINK_IsHalted()  returns FALSE (0001ms, 0470ms total)
T2CDC 000:686 JLINK_IsHalted()  returns FALSE (0000ms, 0469ms total)
T2CDC 000:688 JLINK_IsHalted()  returns FALSE (0000ms, 0469ms total)
T2CDC 000:689 JLINK_IsHalted()  returns FALSE (0001ms, 0470ms total)
T2CDC 000:691 JLINK_IsHalted()  returns FALSE (0000ms, 0469ms total)
T2CDC 000:693 JLINK_IsHalted() -- CPU_ReadMem(2 bytes @ 0x20000000)  returns TRUE (0002ms, 0471ms total)
T2CDC 000:695 JLINK_ReadReg(R15 (PC))  returns 0x20000000 (0000ms, 0469ms total)
T2CDC 000:695 JLINK_ClrBPEx(BPHandle = 0x00000010)  returns 0x00 (0000ms, 0469ms total)
T2CDC 000:695 JLINK_ReadReg(R0)  returns 0x00000000 (0000ms, 0469ms total)
T2CDC 000:695 JLINK_WriteMem(0x20000478, 0x0388 Bytes, ...) - Data: 80 B2 20 80 41 19 30 88 00 F0 25 FF 21 88 40 18 ... -- CPU_WriteMem(904 bytes @ 0x20000478)  returns 0x388 (0004ms, 0473ms total)
T2CDC 000:699 JLINK_WriteMem(0x20000800, 0x0078 Bytes, ...) - Data: FF F7 28 FA 1A 48 18 49 00 68 05 90 00 23 48 22 ... -- CPU_WriteMem(120 bytes @ 0x20000800)  returns 0x78 (0000ms, 0473ms total)
T2CDC 000:699 JLINK_WriteReg(R0, 0x0001C000)  returns 0x00 (0000ms, 0473ms total)
T2CDC 000:699 JLINK_WriteReg(R1, 0x00000400)  returns 0x00 (0000ms, 0473ms total)
T2CDC 000:699 JLINK_WriteReg(R2, 0x20000478)  returns 0x00 (0000ms, 0473ms total)
T2CDC 000:699 JLINK_WriteReg(R3, 0x00000000)  returns 0x00 (0000ms, 0473ms total)
T2CDC 000:699 JLINK_WriteReg(R4, 0x00000000)  returns 0x00 (0000ms, 0473ms total)
T2CDC 000:699 JLINK_WriteReg(R5, 0x00000000)  returns 0x00 (0000ms, 0473ms total)
T2CDC 000:699 JLINK_WriteReg(R6, 0x00000000)  returns 0x00 (0000ms, 0473ms total)
T2CDC 000:699 JLINK_WriteReg(R7, 0x00000000)  returns 0x00 (0000ms, 0473ms total)
